
**** 04/13/20 16:48:43 ************** PSpice Lite (Mar 2000) *****************

 ** Profile: "SCHEMATIC1-031"  [ e:\qu\1______________________@~\chapther2\031\sp031\031-schematic1-031.sim ] 


 ****     CIRCUIT DESCRIPTION


******************************************************************************




** Creating circuit file "031-schematic1-031.sim.cir" 
** WARNING: THIS AUTOMATICALLY GENERATED FILE MAY BE OVERWRITTEN BY SUBSEQUENT SIMULATIONS

*Libraries: 
* Local Libraries :
* From [PSPICE NETLIST] section of C:\Program Files\OrcadLite\PSpice\PSpice.ini file:
.lib "C:\Program Files\OrcadLite\Capture\Library\PSpice\pwrmos.lib" 
.lib "nom.lib" 

*Analysis directives: 
.AC DEC 101 0.1 10E9
.PROBE V(*) I(*) W(*) D(*) NOISE(*) 
.INC ".\031-SCHEMATIC1.net" 



**** INCLUDING 031-SCHEMATIC1.net ****
* source 031
.EXTERNAL OUTPUT VO1
Q_Q1         VC VB VE Q2N2222
R_R1         VB VC  150k  
R_R2         0 VB  91k  
R_R3         0 VE  3.3k  
R_R4         0 VO1  1k  
C_C1         VB N00659  10u  
C_C2         VE VO1  47u  
C_C3         VC 0  0.1u  
C_C4         VC 0  120u  
V_V1         N00659 0 DC 0 AC 1
+SIN 0 50m 5.4k 0 0 0
V_V2         VC 0 30Vdc

**** RESUMING 031-schematic1-031.sim.cir ****
.END

**** 04/13/20 16:48:43 ************** PSpice Lite (Mar 2000) *****************

 ** Profile: "SCHEMATIC1-031"  [ e:\qu\1______________________@~\chapther2\031\sp031\031-schematic1-031.sim ] 


 ****     BJT MODEL PARAMETERS


******************************************************************************




               Q2N2222         
               NPN             
          IS   14.340000E-15 
          BF  255.9          
          NF    1            
         VAF   74.03         
         IKF     .2847       
         ISE   14.340000E-15 
          NE    1.307        
          BR    6.092        
          NR    1            
          RB   10            
          RC    1            
         CJE   22.010000E-12 
         MJE     .377        
         CJC    7.306000E-12 
         MJC     .3416       
          TF  411.100000E-12 
         XTF    3            
         VTF    1.7          
         ITF     .6          
          TR   46.910000E-09 
         XTB    1.5          
          CN    2.42         
           D     .87         


**** 04/13/20 16:48:43 ************** PSpice Lite (Mar 2000) *****************

 ** Profile: "SCHEMATIC1-031"  [ e:\qu\1______________________@~\chapther2\031\sp031\031-schematic1-031.sim ] 


 ****     SMALL SIGNAL BIAS SOLUTION       TEMPERATURE =   27.000 DEG C


******************************************************************************



 NODE   VOLTAGE     NODE   VOLTAGE     NODE   VOLTAGE     NODE   VOLTAGE


(   VB)   10.4940  (   VC)   30.0000  (   VE)    9.8258  (  VO1)    0.0000      

(N00659)    0.0000 




    VOLTAGE SOURCE CURRENTS
    NAME         CURRENT

    V_V1         0.000E+00
    V_V2        -3.093E-03

    TOTAL POWER DISSIPATION   9.28E-02  WATTS



          JOB CONCLUDED

          TOTAL JOB TIME             .38
