
**** 06/12/20 11:49:29 ************** PSpice Lite (Mar 2000) *****************

 ** Profile: "SCHEMATIC1-s091_1"  [ C:\1________________________\chapther2\091\091-schematic1-s091_1.sim ] 


 ****     CIRCUIT DESCRIPTION


******************************************************************************




** Creating circuit file "091-schematic1-s091_1.sim.cir" 
** WARNING: THIS AUTOMATICALLY GENERATED FILE MAY BE OVERWRITTEN BY SUBSEQUENT SIMULATIONS

*Libraries: 
* Local Libraries :
* From [PSPICE NETLIST] section of C:\Program Files\OrcadLite\PSpice\PSpice.ini file:
.lib "C:\Program Files\OrcadLite\Capture\Library\PSpice\siemens.lib" 
.lib "nom.lib" 

*Analysis directives: 
.TRAN  0 5.070U 0 0.5n 
.PROBE V(*) I(*) W(*) D(*) NOISE(*) 
.INC ".\091-SCHEMATIC1.net" 



**** INCLUDING 091-SCHEMATIC1.net ****
* source 091
.EXTERNAL OUTPUT VO11
.EXTERNAL OUTPUT VO22
V_V1         V1 0  AC 1
+SIN 0 0.01 986.132kHz 0 0 0
C_C3         +15V 0  120u  
V_V2         +15V 0 15
C_C4         -15V 0  120u  
V_V3         -15V 0 -15
R_R6         VO11 N01732  2.7k  
R_R7         N01732 VO22  270k  
R_R8         0 N02076  2.4k  
X_U1         V1 VO11 +15V -15V VO11 uA741
X_U2         N02076 N01732 +15V -15V VO22 uA741
C_C1         +15V 0  0.1u  
C_C2         0 -15V  0.1u  

**** RESUMING 091-schematic1-s091_1.sim.cir ****
.END

**** 06/12/20 11:49:29 ************** PSpice Lite (Mar 2000) *****************

 ** Profile: "SCHEMATIC1-s091_1"  [ C:\1________________________\chapther2\091\091-schematic1-s091_1.sim ] 


 ****     Diode MODEL PARAMETERS


******************************************************************************




               X_U1.dx         X_U2.dx         
          IS  800.000000E-18  800.000000E-18 
          RS    1               1            


**** 06/12/20 11:49:29 ************** PSpice Lite (Mar 2000) *****************

 ** Profile: "SCHEMATIC1-s091_1"  [ C:\1________________________\chapther2\091\091-schematic1-s091_1.sim ] 


 ****     BJT MODEL PARAMETERS


******************************************************************************




               X_U1.qx         X_U2.qx         
               NPN             NPN             
          IS  800.000000E-18  800.000000E-18 
          BF   93.75           93.75         
          NF    1               1            
          BR    1               1            
          NR    1               1            
          CN    2.42            2.42         
           D     .87             .87         


**** 06/12/20 11:49:29 ************** PSpice Lite (Mar 2000) *****************

 ** Profile: "SCHEMATIC1-s091_1"  [ C:\1________________________\chapther2\091\091-schematic1-s091_1.sim ] 


 ****     INITIAL TRANSIENT SOLUTION       TEMPERATURE =   27.000 DEG C


******************************************************************************



 NODE   VOLTAGE     NODE   VOLTAGE     NODE   VOLTAGE     NODE   VOLTAGE


(   V1)    0.0000  ( +15V)   15.0000  ( -15V)  -15.0000  ( VO11) 19.25E-06      

( VO22)     .0022  (N01732)-172.1E-06 (N02076)-191.3E-06 (X_U1.6)-4.262E-09     

(X_U1.7) 26.78E-06 (X_U1.8) 26.78E-06 (X_U1.9)    0.0000 (X_U2.6)-211.0E-09     

(X_U2.7)     .0022 (X_U2.8)     .0022 (X_U2.9)    0.0000 (X_U1.10)    -.6077    

(X_U1.11)   14.9600                   (X_U1.12)   14.9600                       

(X_U1.13)    -.5938                   (X_U1.14)    -.5938                       

(X_U1.53)   14.0000                   (X_U1.54)  -14.0000                       

(X_U1.90) 151.2E-06                   (X_U1.91)   40.0000                       

(X_U1.92)  -40.0000                   (X_U1.99)    0.0000                       

(X_U2.10)    -.6079                   (X_U2.11)   14.9600                       

(X_U2.12)   14.9600                   (X_U2.13)    -.5940                       

(X_U2.14)    -.5940                   (X_U2.53)   14.0000                       

(X_U2.54)  -14.0000                   (X_U2.90) 8.895E-06                       

(X_U2.91)   40.0000                   (X_U2.92)  -40.0000                       

(X_U2.99)    0.0000                   




    VOLTAGE SOURCE CURRENTS
    NAME         CURRENT

    V_V1        -7.972E-08
    V_V2        -3.334E-03
    V_V3         3.334E-03
    X_U1.vb     -4.262E-14
    X_U1.vc      1.400E-11
    X_U1.ve      1.400E-11
    X_U1.vlim    1.512E-07
    X_U1.vlp    -4.000E-11
    X_U1.vln    -4.000E-11
    X_U2.vb     -2.110E-12
    X_U2.vc      1.400E-11
    X_U2.ve      1.400E-11
    X_U2.vlim    8.895E-09
    X_U2.vlp    -4.000E-11
    X_U2.vln    -4.000E-11

    TOTAL POWER DISSIPATION   1.00E-01  WATTS



          JOB CONCLUDED

          TOTAL JOB TIME            2.66
