
**** 04/09/20 23:53:28 ************** PSpice Lite (Mar 2000) *****************

 ** Profile: "SCHEMATIC1-021"  [ e:\qu\1______________________@~\chapther2\021\p021\021-schematic1-021.sim ] 


 ****     CIRCUIT DESCRIPTION


******************************************************************************




** Creating circuit file "021-schematic1-021.sim.cir" 
** WARNING: THIS AUTOMATICALLY GENERATED FILE MAY BE OVERWRITTEN BY SUBSEQUENT SIMULATIONS

*Libraries: 
* Local Libraries :
* From [PSPICE NETLIST] section of C:\Program Files\OrcadLite\PSpice\PSpice.ini file:
.lib "C:\Program Files\OrcadLite\Capture\Library\PSpice\pwrmos.lib" 
.lib "nom.lib" 

*Analysis directives: 
.AC DEC 101 0.1 10e8
.PROBE V(*) I(*) W(*) D(*) NOISE(*) 
.INC ".\021-SCHEMATIC1.net" 



**** INCLUDING 021-SCHEMATIC1.net ****
* source 021
.EXTERNAL OUTPUT VO1
V_V2         N00463 0 30Vdc
R_R3         VC1 N00463  3k  
C_C1         VB1 N00825  39u  
R_R4         0 VE1  75  
C_C2         VC1 VO1  39u  
R_R5         0 VO1  1k  
C_C3         N00463 0  0.1u  
V_V1         N00825 0 DC 0 AC 1
+SIN 0 50m 5.4k 0 0 0
C_C4         N00463 0  120u  
Q_Q1         VC1 VB1 VE1 Q2N2222
R_R1         VB1 N00463  150k  
R_R2         0 VB1  5.1k  

**** RESUMING 021-schematic1-021.sim.cir ****
.END

**** 04/09/20 23:53:28 ************** PSpice Lite (Mar 2000) *****************

 ** Profile: "SCHEMATIC1-021"  [ e:\qu\1______________________@~\chapther2\021\p021\021-schematic1-021.sim ] 


 ****     BJT MODEL PARAMETERS


******************************************************************************




               Q2N2222         
               NPN             
          IS   14.340000E-15 
          BF  255.9          
          NF    1            
         VAF   74.03         
         IKF     .2847       
         ISE   14.340000E-15 
          NE    1.307        
          BR    6.092        
          NR    1            
          RB   10            
          RC    1            
         CJE   22.010000E-12 
         MJE     .377        
         CJC    7.306000E-12 
         MJC     .3416       
          TF  411.100000E-12 
         XTF    3            
         VTF    1.7          
         ITF     .6          
          TR   46.910000E-09 
         XTB    1.5          
          CN    2.42         
           D     .87         


**** 04/09/20 23:53:28 ************** PSpice Lite (Mar 2000) *****************

 ** Profile: "SCHEMATIC1-021"  [ e:\qu\1______________________@~\chapther2\021\p021\021-schematic1-021.sim ] 


 ****     SMALL SIGNAL BIAS SOLUTION       TEMPERATURE =   27.000 DEG C


******************************************************************************



 NODE   VOLTAGE     NODE   VOLTAGE     NODE   VOLTAGE     NODE   VOLTAGE


(  VB1)     .9092  (  VC1)   20.4790  (  VE1)     .2392  (  VO1)    0.0000      

(N00463)   30.0000 (N00825)    0.0000 




    VOLTAGE SOURCE CURRENTS
    NAME         CURRENT

    V_V2        -3.368E-03
    V_V1         0.000E+00

    TOTAL POWER DISSIPATION   1.01E-01  WATTS



          JOB CONCLUDED

          TOTAL JOB TIME             .38
