
**** 04/17/20 15:06:02 ****** PSpice 17.2.0 (March 2016) ****** ID# 0 ********

 ** Profile: "SCHEMATIC1-tts"  [ C:\ps041\tt-schematic1-tts.sim ] 


 ****     CIRCUIT DESCRIPTION


******************************************************************************




** Creating circuit file "tt-SCHEMATIC1-tts.sim.cir" 
** WARNING: THIS AUTOMATICALLY GENERATED FILE MAY BE OVERWRITTEN BY SUBSEQUENT SIMULATIONS

*Libraries: 
* Profile Libraries :
* Local Libraries :
* From [PSPICE NETLIST] section of C:\SPB_Data\cdssetup\OrCAD_PSpice\17.2.0\PSpice.ini file:
.lib "nom.lib" 

*Analysis directives: 
.TRAN  0 1ms 0 50n 
.OPTIONS ADVCONV
.PROBE64 V(*) I(*) W(*) D(*) NOISE(*) 
.INC ".\tt-SCHEMATIC1.net" 



**** INCLUDING tt-SCHEMATIC1.net ****
* source TT
.EXTERNAL OUTPUT V01
C_C4         VC1 VB2  39u  
C_C6         VC2 V01  39u  
R_R3         0 VB1  5.1k  
C_C7         VB1 N00729  39u  
C_C3         VE1 0  120u  
R_R4         0 VE1  240  
R_R11         VE2 N05274  47  
Q_Q2         VC2 VB2 N05274 Q2N2222
R_R7         VC2 N00461  3.6k  
C_C5         VE2 0  120u  
C_C2         N00461 0  120u  
V_V2         N00461 0 30Vdc
V_V1         N00729 0 DC 0 AC 1
+SIN 0 10m 5.4k 0 0 0
R_R10         VE1 N04915  47  
R_R9         0 V01  1k  
Q_Q1         VC1 VB1 N04915 Q2N2222
R_R2         VC1 N00461  3.6k  
R_R8         0 VE2  240  
C_C1         N00461 0  0.1u  
R_R5         0 VB2  5.1k  
R_R1         VB1 N00461  56k  
R_R6         VB2 N00461  56k  

**** RESUMING tt-SCHEMATIC1-tts.sim.cir ****
.END

**** 04/17/20 15:06:02 ****** PSpice 17.2.0 (March 2016) ****** ID# 0 ********

 ** Profile: "SCHEMATIC1-tts"  [ C:\ps041\tt-schematic1-tts.sim ] 


 ****     BJT MODEL PARAMETERS


******************************************************************************




               Q2N2222         
               NPN             
       LEVEL    1            
          IS   14.340000E-15 
          BF  255.9          
          NF    1            
         VAF   74.03         
         IKF     .2847       
         ISE   14.340000E-15 
          NE    1.307        
          BR    6.092        
          NR    1            
         ISS    0            
          RB   10            
          RE    0            
          RC    1            
         CJE   22.010000E-12 
         VJE     .75         
         MJE     .377        
         CJC    7.306000E-12 
         VJC     .75         
         MJC     .3416       
        XCJC    1            
         CJS    0            
         VJS     .75         
          TF  411.100000E-12 
         XTF    3            
         VTF    1.7          
         ITF     .6          
          TR   46.910000E-09 
         XTB    1.5          
          KF    0            
          AF    1            
          CN    2.42         
           D     .87         


**** 04/17/20 15:06:02 ****** PSpice 17.2.0 (March 2016) ****** ID# 0 ********

 ** Profile: "SCHEMATIC1-tts"  [ C:\ps041\tt-schematic1-tts.sim ] 


 ****     INITIAL TRANSIENT SOLUTION       TEMPERATURE =   27.000 DEG C


******************************************************************************



 NODE   VOLTAGE     NODE   VOLTAGE     NODE   VOLTAGE     NODE   VOLTAGE


(  V01)    0.0000  (  VB1)    2.3575  (  VB2)    2.3575  (  VC1)    9.1923      

(  VC2)    9.1923  (  VE1)    1.3947  (  VE2)    1.3947  (N00461)   30.0000     

(N00729)    0.0000 (N04915)    1.6678 (N05274)    1.6678 




    VOLTAGE SOURCE CURRENTS
    NAME         CURRENT

    V_V2        -1.255E-02
    V_V1         0.000E+00

    TOTAL POWER DISSIPATION   3.76E-01  WATTS



          JOB CONCLUDED

**** 04/17/20 15:06:02 ****** PSpice 17.2.0 (March 2016) ****** ID# 0 ********

 ** Profile: "SCHEMATIC1-tts"  [ C:\ps041\tt-schematic1-tts.sim ] 


 ****     JOB STATISTICS SUMMARY


******************************************************************************



  License check-out time            =        3.52
  Total job time (using Solver 1)   =        1.31
