
**** 03/27/20 15:36:42 ************** PSpice Lite (Mar 2000) *****************

 ** Profile: "SCHEMATIC1-test"  [ C:\1________________________\CHAPTHER2\021\test\test-SCHEMATIC1-test.sim ] 


 ****     CIRCUIT DESCRIPTION


******************************************************************************




** Creating circuit file "test-SCHEMATIC1-test.sim.cir" 
** WARNING: THIS AUTOMATICALLY GENERATED FILE MAY BE OVERWRITTEN BY SUBSEQUENT SIMULATIONS

*Libraries: 
* Local Libraries :
* From [PSPICE NETLIST] section of C:\Program Files\OrcadLite\PSpice\PSpice.ini file:
.lib "nom.lib" 

*Analysis directives: 
.TRAN  0 1m 0 50n 
.PROBE V(*) I(*) W(*) D(*) NOISE(*) 
.INC ".\test-SCHEMATIC1.net" 



**** INCLUDING test-SCHEMATIC1.net ****
* source TEST
.EXTERNAL OUTPUT VO1
V_V2         N00463 0 20Vdc
R_R3         N03530 N00463  1k  
C_C1         VB1 N00825  39u  
R_R4         0 VE1  56  
C_C2         N00714 VO1  39u  
R_R5         0 VO1  1k  
C_C3         N00463 0  0.1u  
V_V1         N00825 0 DC 0 AC 1
+SIN 0 50m 5.4k 0 0 0
C_C4         N00463 0  120u  
Q_Q1         N00714 VB1 VE1 Q2N2222
R_R6         VB1 N03433 {4k*0.5+.001}
R_R7         N00714 N03530 {272*0.5+.001}
R_R1         N03433 N00463  39k  
R_R2         0 VB1  2.7k  

**** RESUMING test-SCHEMATIC1-test.sim.cir ****
.END

**** 03/27/20 15:36:42 ************** PSpice Lite (Mar 2000) *****************

 ** Profile: "SCHEMATIC1-test"  [ C:\1________________________\CHAPTHER2\021\test\test-SCHEMATIC1-test.sim ] 


 ****     BJT MODEL PARAMETERS


******************************************************************************




               Q2N2222         
               NPN             
          IS   14.340000E-15 
          BF  255.9          
          NF    1            
         VAF   74.03         
         IKF     .2847       
         ISE   14.340000E-15 
          NE    1.307        
          BR    6.092        
          NR    1            
          RB   10            
          RC    1            
         CJE   22.010000E-12 
         MJE     .377        
         CJC    7.306000E-12 
         MJC     .3416       
          TF  411.100000E-12 
         XTF    3            
         VTF    1.7          
         ITF     .6          
          TR   46.910000E-09 
         XTB    1.5          
          CN    2.42         
           D     .87         


**** 03/27/20 15:36:42 ************** PSpice Lite (Mar 2000) *****************

 ** Profile: "SCHEMATIC1-test"  [ C:\1________________________\CHAPTHER2\021\test\test-SCHEMATIC1-test.sim ] 


 ****     INITIAL TRANSIENT SOLUTION       TEMPERATURE =   27.000 DEG C


******************************************************************************



 NODE   VOLTAGE     NODE   VOLTAGE     NODE   VOLTAGE     NODE   VOLTAGE


(  VB1)    1.1343  (  VE1)     .4378  (  VO1)    0.0000  (N00463)   20.0000     

(N00714)   11.1650 (N00825)    0.0000 (N03433)    2.0546 (N03530)   12.2220 




    VOLTAGE SOURCE CURRENTS
    NAME         CURRENT

    V_V2        -8.238E-03
    V_V1         0.000E+00

    TOTAL POWER DISSIPATION   1.65E-01  WATTS



          JOB CONCLUDED

          TOTAL JOB TIME            1.88
