
**** 03/27/20 19:35:08 ****** PSpice 17.2.0 (March 2016) ****** ID# 0 ********

 ** Profile: "SCHEMATIC1-021"  [ I:\qu龟策\1______________________@~\chapther2\021\1\021-pspicefiles\schematic1\021.sim ] 


 ****     CIRCUIT DESCRIPTION


******************************************************************************




** Creating circuit file "021.cir" 
** WARNING: THIS AUTOMATICALLY GENERATED FILE MAY BE OVERWRITTEN BY SUBSEQUENT SIMULATIONS

*Libraries: 
* Profile Libraries :
* Local Libraries :
* From [PSPICE NETLIST] section of C:\SPB_Data\cdssetup\OrCAD_PSpice\17.2.0\PSpice.ini file:
.lib "nom.lib" 

*Analysis directives: 
.TRAN  0 1m 0 50n 
.OPTIONS ADVCONV
.PROBE64 V(*) I(*) W(*) D(*) NOISE(*) 
.INC "..\SCHEMATIC1.net" 



**** INCLUDING SCHEMATIC1.net ****
* source 021
.EXTERNAL OUTPUT VO1
V_V2         N00463 0 30Vdc
C_C1         VB1 N00825  39u  
C_C2         VC1 VO1  39u  
C_C3         N00463 0  0.1u  
C_C4         N00463 0  120u  
R_R1         VB1 N00463  150k  
R_R2         0 VB1  5.1k  
R_R3         VC1 N00463  3k  
R_R4         0 VE1  75  
R_R5         0 VO1  1k  
V_V1         N00825 0 DC 0 AC 1
+SIN 0 50m 5.4k 0 0 0
Q_Q1         VC1 VB1 VE1 Q2N2222

**** RESUMING 021.cir ****
.END

**** 03/27/20 19:35:08 ****** PSpice 17.2.0 (March 2016) ****** ID# 0 ********

 ** Profile: "SCHEMATIC1-021"  [ I:\qu龟策\1______________________@~\chapther2\021\1\021-pspicefiles\schematic1\021.sim ] 


 ****     BJT MODEL PARAMETERS


******************************************************************************




               Q2N2222         
               NPN             
       LEVEL    1            
          IS   14.340000E-15 
          BF  255.9          
          NF    1            
         VAF   74.03         
         IKF     .2847       
         ISE   14.340000E-15 
          NE    1.307        
          BR    6.092        
          NR    1            
         ISS    0            
          RB   10            
          RE    0            
          RC    1            
         CJE   22.010000E-12 
         VJE     .75         
         MJE     .377        
         CJC    7.306000E-12 
         VJC     .75         
         MJC     .3416       
        XCJC    1            
         CJS    0            
         VJS     .75         
          TF  411.100000E-12 
         XTF    3            
         VTF    1.7          
         ITF     .6          
          TR   46.910000E-09 
         XTB    1.5          
          KF    0            
          AF    1            
          CN    2.42         
           D     .87         


**** 03/27/20 19:35:08 ****** PSpice 17.2.0 (March 2016) ****** ID# 0 ********

 ** Profile: "SCHEMATIC1-021"  [ I:\qu龟策\1______________________@~\chapther2\021\1\021-pspicefiles\schematic1\021.sim ] 


 ****     INITIAL TRANSIENT SOLUTION       TEMPERATURE =   27.000 DEG C


******************************************************************************



 NODE   VOLTAGE     NODE   VOLTAGE     NODE   VOLTAGE     NODE   VOLTAGE


(  VB1)     .9092  (  VC1)   20.4790  (  VE1)     .2392  (  VO1)    0.0000      

(N00463)   30.0000 (N00825)    0.0000 




    VOLTAGE SOURCE CURRENTS
    NAME         CURRENT

    V_V2        -3.368E-03
    V_V1         0.000E+00

    TOTAL POWER DISSIPATION   1.01E-01  WATTS



          JOB CONCLUDED

**** 03/27/20 19:35:08 ****** PSpice 17.2.0 (March 2016) ****** ID# 0 ********

 ** Profile: "SCHEMATIC1-021"  [ I:\qu龟策\1______________________@~\chapther2\021\1\021-pspicefiles\schematic1\021.sim ] 


 ****     JOB STATISTICS SUMMARY


******************************************************************************



  License check-out time            =         .53
  Total job time (using Solver 1)   =         .67
